T3EC0 000:000.465   SEGGER J-Link V7.96j Log File
T3EC0 000:000.594   DLL Compiled: May 29 2024 15:36:36
T3EC0 000:000.600   Logging started @ 2024-07-10 12:12
T3EC0 000:000.605   Process: C:\Users\Public\.eclipse\com.renesas.platform_1731436733\DebugComp\RA\e2-server-gdb.exe
T3EC0 000:000.612 - 0.610ms
T3EC0 000:000.623 JLINK_GetDLLVersion()
T3EC0 000:000.629 - 0.006ms returns 79610
T3EC0 000:001.342 JLINK_OpenEx(...)
T3EC0 000:005.120   Firmware: J-Link OB-RA4M2 compiled May 28 2024 15:43:06
T3EC0 000:005.837   Firmware: J-Link OB-RA4M2 compiled May 28 2024 15:43:06
T3EC0 000:021.886   Hardware: V1.00
T3EC0 000:021.924   S/N: 1080351215
T3EC0 000:021.933   OEM: SEGGER
T3EC0 000:021.949   Feature(s): None
T3EC0 000:022.841   Bootloader: 2021 May 14
T3EC0 000:023.405   USB speed mode: Full speed (12 MBit/s)
T3EC0 000:023.856   TELNET listener socket opened on port 19021
T3EC0 000:024.022   WEBSRV WEBSRV_Init(): Starting webserver thread(s)
T3EC0 000:024.187   WEBSRV Webserver running on local port 19080
T3EC0 000:024.302   Looking for J-Link GUI Server exe at: C:\Users\Public\.eclipse\com.renesas.platform_1731436733\DebugComp\RA\ARM\Segger_v7.96.10\JLinkGUIServer.exe
T3EC0 000:024.425   Looking for J-Link GUI Server exe at: \JLinkGUIServer.exe
T3EC0 000:333.374   Failed to connect to J-Link GUI Server.
T3EC0 000:333.416 - 332.068ms returns "O.K."
T3EC0 000:333.518 JLINK_TIF_Select(JLINKARM_TIF_SWD)
T3EC0 000:335.642 - 2.126ms returns 0x00
T3EC0 000:335.681 JLINK_ClrRESET()
T3EC0 000:336.118 - 0.436ms
T3EC0 000:387.188 JLINK_SetSpeed(1500)
T3EC0 000:387.424 - 0.241ms
T3EC0 000:387.444 JLINK_CORESIGHT_Configure(PerformTIFInit=0)
T3EC0 000:387.857 - 0.412ms returns 0
T3EC0 000:387.911 JLINK_CORESIGHT_ReadAPDPReg(DP reg 0x00)
T3EC0 000:388.361   Value=0x6BA02477
T3EC0 000:388.397 - 0.489ms returns 0
T3EC0 000:388.422 JLINK_CORESIGHT_WriteAPDPReg(DP reg 0x00, 0x0000001F)
T3EC0 000:388.708 - 0.286ms returns 0
T3EC0 000:388.738 JLINK_CORESIGHT_ReadAPDPReg(DP reg 0x00)
T3EC0 000:389.096   Value=0x6BA02477
T3EC0 000:389.120 - 0.382ms returns 0
T3EC0 000:389.131 JLINK_CORESIGHT_WriteAPDPReg(DP reg 0x02, 0x00000000)
T3EC0 000:390.674 - 1.542ms returns 0
T3EC0 000:390.697 JLINK_CORESIGHT_WriteAPDPReg(DP reg 0x01, 0x50000000)
T3EC0 000:391.026 - 0.329ms returns 0
T3EC0 000:391.048 JLINK_CORESIGHT_ReadAPDPReg(DP reg 0x01)
T3EC0 000:391.413   Value=0xF0000040
T3EC0 000:391.430 - 0.381ms returns 0
T3EC0 000:391.440 JLINK_CORESIGHT_WriteAPDPReg(DP reg 0x00, 0x0000001F)
T3EC0 000:391.739 - 0.299ms returns 0
T3EC0 000:391.762 JLINK_CORESIGHT_ReadAPDPReg(DP reg 0x00)
T3EC0 000:392.036   Value=0x6BA02477
T3EC0 000:392.052 - 0.289ms returns 0
T3EC0 000:392.061 JLINK_CORESIGHT_WriteAPDPReg(DP reg 0x01, 0x54000000)
T3EC0 000:392.391 - 0.330ms returns 0
T3EC0 000:392.402 JLINK_CORESIGHT_WriteAPDPReg(DP reg 0x01, 0x50000F00)
T3EC0 000:392.591 - 0.189ms returns 0
T3EC0 000:392.603 JLINK_CORESIGHT_WriteAPDPReg(DP reg 0x02, 0x01000000)
T3EC0 000:392.824 - 0.221ms returns 0
T3EC0 000:392.835 JLINK_CORESIGHT_WriteAPDPReg(AP reg 0x00, 0x80000002)
T3EC0 000:393.017 - 0.182ms returns 0
T3EC0 000:393.035 JLINK_CORESIGHT_WriteAPDPReg(AP reg 0x01, 0x80011100)
T3EC0 000:393.222 - 0.187ms returns 0
T3EC0 000:393.233 JLINK_CORESIGHT_WriteAPDPReg(AP reg 0x03, 0x000000A5)
T3EC0 000:393.422 - 0.189ms returns 0
T3EC0 000:393.433 JLINK_CORESIGHT_WriteAPDPReg(AP reg 0x00, 0x80000002)
T3EC0 000:393.614 - 0.181ms returns 0
T3EC0 000:393.624 JLINK_CORESIGHT_WriteAPDPReg(AP reg 0x01, 0x80011100)
T3EC0 000:393.811 - 0.186ms returns 0
T3EC0 000:393.822 JLINK_CORESIGHT_ReadAPDPReg(AP reg 0x03)
T3EC0 000:394.065   Value=0x000000A5
T3EC0 000:394.081 - 0.259ms returns 0
T3EC0 000:394.090 JLINK_ClrTMS()
T3EC0 000:394.159 - 0.069ms
T3EC0 000:399.821 JLINK_SetTCK()
T3EC0 000:399.973 - 0.154ms returns 0
T3EC0 000:405.770 JLINK_SetRESET()
T3EC0 000:405.957 - 0.187ms
T3EC0 000:606.326 JLINK_CORESIGHT_WriteAPDPReg(AP reg 0x00, 0x80000002)
T3EC0 000:606.641 - 0.315ms returns 0
T3EC0 000:606.658 JLINK_CORESIGHT_WriteAPDPReg(AP reg 0x01, 0x80011100)
T3EC0 000:606.969 - 0.310ms returns 0
T3EC0 000:606.987 JLINK_CORESIGHT_ReadAPDPReg(AP reg 0x03)
T3EC0 000:607.360   Value=0x00000000
T3EC0 000:607.376 - 0.389ms returns 0
T3EC0 000:607.387 JLINK_CORESIGHT_WriteAPDPReg(AP reg 0x00, 0x80000002)
T3EC0 000:607.677 - 0.290ms returns 0
T3EC0 000:607.693 JLINK_CORESIGHT_WriteAPDPReg(AP reg 0x01, 0x80011140)
T3EC0 000:608.009 - 0.316ms returns 0
T3EC0 000:608.021 JLINK_CORESIGHT_ReadAPDPReg(AP reg 0x03)
T3EC0 000:608.429   Value=0x00000002
T3EC0 000:608.439 - 0.418ms returns 0
T3EC0 000:608.447 JLINK_CORESIGHT_WriteAPDPReg(AP reg 0x00, 0x80000002)
T3EC0 000:608.743 - 0.295ms returns 0
T3EC0 000:608.760 JLINK_CORESIGHT_WriteAPDPReg(AP reg 0x01, 0x80011120)
T3EC0 000:609.079 - 0.319ms returns 0
T3EC0 000:609.095 JLINK_CORESIGHT_WriteAPDPReg(AP reg 0x03, 0x00000055)
T3EC0 000:609.394 - 0.298ms returns 0
T3EC0 000:609.409 JLINK_CORESIGHT_WriteAPDPReg(AP reg 0x00, 0x80000002)
T3EC0 000:609.669 - 0.259ms returns 0
T3EC0 000:609.684 JLINK_CORESIGHT_WriteAPDPReg(AP reg 0x01, 0x80011140)
T3EC0 000:609.880 - 0.196ms returns 0
T3EC0 000:609.893 JLINK_CORESIGHT_ReadAPDPReg(AP reg 0x03)
T3EC0 000:610.156   Value=0x00000000
T3EC0 000:610.168 - 0.274ms returns 0
T3EC0 000:610.176 JLINK_CORESIGHT_WriteAPDPReg(AP reg 0x00, 0x80000002)
T3EC0 000:610.465 - 0.288ms returns 0
T3EC0 000:610.482 JLINK_CORESIGHT_WriteAPDPReg(AP reg 0x01, 0x80011130)
T3EC0 000:610.672 - 0.190ms returns 0
T3EC0 000:610.683 JLINK_CORESIGHT_ReadAPDPReg(AP reg 0x03)
T3EC0 000:610.972   Value=0x000000C6
T3EC0 000:610.984 - 0.300ms returns 0
T3EC0 000:610.996 JLINK_CORESIGHT_WriteAPDPReg(AP reg 0x00, 0x80000002)
T3EC0 000:611.221 - 0.225ms returns 0
T3EC0 000:611.232 JLINK_CORESIGHT_WriteAPDPReg(AP reg 0x01, 0x80011140)
T3EC0 000:611.466 - 0.234ms returns 0
T3EC0 000:611.477 JLINK_CORESIGHT_ReadAPDPReg(AP reg 0x03)
T3EC0 000:611.754   Value=0x00000002
T3EC0 000:611.770 - 0.292ms returns 0
T3EC0 000:611.780 JLINK_CORESIGHT_WriteAPDPReg(AP reg 0x00, 0x80000002)
T3EC0 000:611.972 - 0.192ms returns 0
T3EC0 000:611.983 JLINK_CORESIGHT_WriteAPDPReg(AP reg 0x01, 0x80011120)
T3EC0 000:612.169 - 0.185ms returns 0
T3EC0 000:612.180 JLINK_CORESIGHT_WriteAPDPReg(AP reg 0x03, 0x3A010001)
T3EC0 000:612.424 - 0.244ms returns 0
T3EC0 000:612.435 JLINK_CORESIGHT_WriteAPDPReg(AP reg 0x00, 0x80000002)
T3EC0 000:612.629 - 0.193ms returns 0
T3EC0 000:612.639 JLINK_CORESIGHT_WriteAPDPReg(AP reg 0x01, 0x80011140)
T3EC0 000:612.826 - 0.186ms returns 0
T3EC0 000:612.840 JLINK_CORESIGHT_ReadAPDPReg(AP reg 0x03)
T3EC0 000:613.089   Value=0x00000002
T3EC0 000:613.102 - 0.262ms returns 0
T3EC0 000:613.111 JLINK_CORESIGHT_WriteAPDPReg(AP reg 0x00, 0x80000002)
T3EC0 000:613.325 - 0.214ms returns 0
T3EC0 000:613.335 JLINK_CORESIGHT_WriteAPDPReg(AP reg 0x01, 0x80011120)
T3EC0 000:613.521 - 0.186ms returns 0
T3EC0 000:613.531 JLINK_CORESIGHT_WriteAPDPReg(AP reg 0x03, 0x000003C5)
T3EC0 000:613.713 - 0.182ms returns 0
T3EC0 000:613.724 JLINK_CORESIGHT_WriteAPDPReg(AP reg 0x00, 0x80000002)
T3EC0 000:613.945 - 0.221ms returns 0
T3EC0 000:613.961 JLINK_CORESIGHT_WriteAPDPReg(AP reg 0x01, 0x80011140)
T3EC0 000:614.152 - 0.191ms returns 0
T3EC0 000:614.163 JLINK_CORESIGHT_ReadAPDPReg(AP reg 0x03)
T3EC0 000:614.479   Value=0x00000002
T3EC0 000:614.490 - 0.326ms returns 0
T3EC0 000:614.497 JLINK_CORESIGHT_ReadAPDPReg(AP reg 0x03)
T3EC0 000:614.746   Value=0x00000002
T3EC0 000:614.757 - 0.259ms returns 0
T3EC0 000:614.765 JLINK_CORESIGHT_ReadAPDPReg(AP reg 0x03)
T3EC0 000:615.010   Value=0x00000002
T3EC0 000:615.021 - 0.256ms returns 0
T3EC0 000:615.029 JLINK_CORESIGHT_ReadAPDPReg(AP reg 0x03)
T3EC0 000:615.353   Value=0x00000002
T3EC0 000:615.368 - 0.338ms returns 0
T3EC0 000:615.377 JLINK_CORESIGHT_ReadAPDPReg(AP reg 0x03)
T3EC0 000:615.667   Value=0x00000002
T3EC0 000:615.681 - 0.304ms returns 0
T3EC0 000:615.690 JLINK_CORESIGHT_ReadAPDPReg(AP reg 0x03)
T3EC0 000:615.979   Value=0x00000002
T3EC0 000:615.993 - 0.302ms returns 0
T3EC0 000:616.002 JLINK_CORESIGHT_ReadAPDPReg(AP reg 0x03)
T3EC0 000:616.400   Value=0x00000000
T3EC0 000:616.421 - 0.419ms returns 0
T3EC0 000:616.435 JLINK_CORESIGHT_WriteAPDPReg(AP reg 0x00, 0x80000002)
T3EC0 000:616.627 - 0.192ms returns 0
T3EC0 000:616.642 JLINK_CORESIGHT_WriteAPDPReg(AP reg 0x01, 0x80011130)
T3EC0 000:616.827 - 0.185ms returns 0
T3EC0 000:616.839 JLINK_CORESIGHT_ReadAPDPReg(AP reg 0x03)
T3EC0 000:617.086   Value=0x3A2A0081
T3EC0 000:617.097 - 0.257ms returns 0
T3EC0 000:617.108 JLINK_CORESIGHT_WriteAPDPReg(AP reg 0x00, 0x80000002)
T3EC0 000:617.317 - 0.209ms returns 0
T3EC0 000:617.329 JLINK_CORESIGHT_WriteAPDPReg(AP reg 0x01, 0x80011140)
T3EC0 000:617.509 - 0.179ms returns 0
T3EC0 000:617.527 JLINK_CORESIGHT_ReadAPDPReg(AP reg 0x03)
T3EC0 000:617.772   Value=0x00000000
T3EC0 000:617.784 - 0.257ms returns 0
T3EC0 000:617.795 JLINK_CORESIGHT_WriteAPDPReg(AP reg 0x00, 0x80000002)
T3EC0 000:617.978 - 0.182ms returns 0
T3EC0 000:617.991 JLINK_CORESIGHT_WriteAPDPReg(AP reg 0x01, 0x80011130)
T3EC0 000:618.176 - 0.185ms returns 0
T3EC0 000:618.189 JLINK_CORESIGHT_ReadAPDPReg(AP reg 0x03)
T3EC0 000:618.485   Value=0x808D5B00
T3EC0 000:618.497 - 0.308ms returns 0
T3EC0 000:618.508 JLINK_CORESIGHT_WriteAPDPReg(AP reg 0x00, 0x80000002)
T3EC0 000:618.690 - 0.182ms returns 0
T3EC0 000:618.706 JLINK_CORESIGHT_WriteAPDPReg(AP reg 0x01, 0x80011140)
T3EC0 000:618.885 - 0.179ms returns 0
T3EC0 000:618.899 JLINK_CORESIGHT_ReadAPDPReg(AP reg 0x03)
T3EC0 000:619.138   Value=0x00000000
T3EC0 000:619.149 - 0.250ms returns 0
T3EC0 000:619.160 JLINK_CORESIGHT_WriteAPDPReg(AP reg 0x00, 0x80000002)
T3EC0 000:619.353 - 0.193ms returns 0
T3EC0 000:619.366 JLINK_CORESIGHT_WriteAPDPReg(AP reg 0x01, 0x80011130)
T3EC0 000:619.573 - 0.207ms returns 0
T3EC0 000:619.586 JLINK_CORESIGHT_ReadAPDPReg(AP reg 0x03)
T3EC0 000:619.925   Value=0x0503030B
T3EC0 000:619.940 - 0.353ms returns 0
T3EC0 000:619.953 JLINK_CORESIGHT_WriteAPDPReg(AP reg 0x00, 0x80000002)
T3EC0 000:620.177 - 0.224ms returns 0
T3EC0 000:620.196 JLINK_CORESIGHT_WriteAPDPReg(AP reg 0x01, 0x80011140)
T3EC0 000:620.456 - 0.260ms returns 0
T3EC0 000:621.319 JLINK_CORESIGHT_ReadAPDPReg(AP reg 0x03)
T3EC0 000:621.763   Value=0x00000000
T3EC0 000:621.796 - 0.478ms returns 0
T3EC0 000:621.814 JLINK_CORESIGHT_WriteAPDPReg(AP reg 0x00, 0x80000002)
T3EC0 000:622.141 - 0.326ms returns 0
T3EC0 000:622.163 JLINK_CORESIGHT_WriteAPDPReg(AP reg 0x01, 0x80011130)
T3EC0 000:622.461 - 0.297ms returns 0
T3EC0 000:622.477 JLINK_CORESIGHT_ReadAPDPReg(AP reg 0x03)
T3EC0 000:622.759   Value=0x2E4B4E1C
T3EC0 000:622.772 - 0.294ms returns 0
T3EC0 000:622.780 JLINK_CORESIGHT_WriteAPDPReg(AP reg 0x00, 0x80000002)
T3EC0 000:622.972 - 0.192ms returns 0
T3EC0 000:622.985 JLINK_CORESIGHT_WriteAPDPReg(AP reg 0x01, 0x80011140)
T3EC0 000:623.203 - 0.218ms returns 0
T3EC0 000:623.218 JLINK_CORESIGHT_ReadAPDPReg(AP reg 0x03)
T3EC0 000:623.519   Value=0x00000000
T3EC0 000:623.533 - 0.315ms returns 0
T3EC0 000:623.541 JLINK_CORESIGHT_WriteAPDPReg(AP reg 0x00, 0x80000002)
T3EC0 000:623.760 - 0.219ms returns 0
T3EC0 000:623.775 JLINK_CORESIGHT_WriteAPDPReg(AP reg 0x01, 0x80011130)
T3EC0 000:623.971 - 0.196ms returns 0
T3EC0 000:623.990 JLINK_CORESIGHT_ReadAPDPReg(AP reg 0x03)
T3EC0 000:624.560   Value=0x4EF0553E
T3EC0 000:624.571 - 0.580ms returns 0
T3EC0 000:624.578 JLINK_CORESIGHT_WriteAPDPReg(AP reg 0x00, 0x80000002)
T3EC0 000:624.774 - 0.196ms returns 0
T3EC0 000:624.784 JLINK_CORESIGHT_WriteAPDPReg(AP reg 0x01, 0x80011140)
T3EC0 000:624.971 - 0.186ms returns 0
T3EC0 000:624.981 JLINK_CORESIGHT_ReadAPDPReg(AP reg 0x03)
T3EC0 000:625.220   Value=0x00000000
T3EC0 000:625.230 - 0.249ms returns 0
T3EC0 000:625.238 JLINK_CORESIGHT_WriteAPDPReg(AP reg 0x00, 0x80000002)
T3EC0 000:625.424 - 0.185ms returns 0
T3EC0 000:625.433 JLINK_CORESIGHT_WriteAPDPReg(AP reg 0x01, 0x80011130)
T3EC0 000:625.620 - 0.186ms returns 0
T3EC0 000:625.630 JLINK_CORESIGHT_ReadAPDPReg(AP reg 0x03)
T3EC0 000:625.871   Value=0x34503036
T3EC0 000:625.882 - 0.252ms returns 0
T3EC0 000:625.889 JLINK_CORESIGHT_WriteAPDPReg(AP reg 0x00, 0x80000002)
T3EC0 000:626.085 - 0.195ms returns 0
T3EC0 000:626.102 JLINK_CORESIGHT_WriteAPDPReg(AP reg 0x01, 0x80011140)
T3EC0 000:626.357 - 0.255ms returns 0
T3EC0 000:626.373 JLINK_CORESIGHT_ReadAPDPReg(AP reg 0x03)
T3EC0 000:626.626   Value=0x00000000
T3EC0 000:626.639 - 0.266ms returns 0
T3EC0 000:626.648 JLINK_CORESIGHT_WriteAPDPReg(AP reg 0x00, 0x80000002)
T3EC0 000:626.835 - 0.187ms returns 0
T3EC0 000:626.846 JLINK_CORESIGHT_WriteAPDPReg(AP reg 0x01, 0x80011130)
T3EC0 000:627.025 - 0.179ms returns 0
T3EC0 000:627.035 JLINK_CORESIGHT_ReadAPDPReg(AP reg 0x03)
T3EC0 000:627.318   Value=0x62012D35
T3EC0 000:627.329 - 0.294ms returns 0
T3EC0 000:627.337 JLINK_CORESIGHT_WriteAPDPReg(AP reg 0x00, 0x80000002)
T3EC0 000:627.518 - 0.180ms returns 0
T3EC0 000:627.542 JLINK_CORESIGHT_WriteAPDPReg(AP reg 0x01, 0x80011140)
T3EC0 000:627.725 - 0.183ms returns 0
T3EC0 000:627.736 JLINK_CORESIGHT_ReadAPDPReg(AP reg 0x03)
T3EC0 000:627.977   Value=0x00000000
T3EC0 000:627.987 - 0.252ms returns 0
T3EC0 000:627.996 JLINK_CORESIGHT_WriteAPDPReg(AP reg 0x00, 0x80000002)
T3EC0 000:628.184 - 0.188ms returns 0
T3EC0 000:628.194 JLINK_CORESIGHT_WriteAPDPReg(AP reg 0x01, 0x80011130)
T3EC0 000:628.422 - 0.227ms returns 0
T3EC0 000:628.432 JLINK_CORESIGHT_ReadAPDPReg(AP reg 0x03)
T3EC0 000:628.683   Value=0x46375277
T3EC0 000:628.695 - 0.262ms returns 0
T3EC0 000:628.703 JLINK_CORESIGHT_WriteAPDPReg(AP reg 0x00, 0x80000002)
T3EC0 000:628.889 - 0.186ms returns 0
T3EC0 000:628.899 JLINK_CORESIGHT_WriteAPDPReg(AP reg 0x01, 0x80011140)
T3EC0 000:629.085 - 0.185ms returns 0
T3EC0 000:629.095 JLINK_CORESIGHT_ReadAPDPReg(AP reg 0x03)
T3EC0 000:629.346   Value=0x00000000
T3EC0 000:629.356 - 0.262ms returns 0
T3EC0 000:629.364 JLINK_CORESIGHT_WriteAPDPReg(AP reg 0x00, 0x80000002)
T3EC0 000:629.545 - 0.181ms returns 0
T3EC0 000:629.556 JLINK_CORESIGHT_WriteAPDPReg(AP reg 0x01, 0x80011130)
T3EC0 000:629.746 - 0.190ms returns 0
T3EC0 000:629.755 JLINK_CORESIGHT_ReadAPDPReg(AP reg 0x03)
T3EC0 000:629.996   Value=0x31443841
T3EC0 000:630.012 - 0.256ms returns 0
T3EC0 000:630.020 JLINK_CORESIGHT_WriteAPDPReg(AP reg 0x00, 0x80000002)
T3EC0 000:630.209 - 0.189ms returns 0
T3EC0 000:630.219 JLINK_CORESIGHT_WriteAPDPReg(AP reg 0x01, 0x80011140)
T3EC0 000:630.420 - 0.201ms returns 0
T3EC0 000:630.430 JLINK_CORESIGHT_ReadAPDPReg(AP reg 0x03)
T3EC0 000:630.681   Value=0x00000000
T3EC0 000:630.691 - 0.261ms returns 0
T3EC0 000:630.699 JLINK_CORESIGHT_WriteAPDPReg(AP reg 0x00, 0x80000002)
T3EC0 000:630.877 - 0.178ms returns 0
T3EC0 000:630.887 JLINK_CORESIGHT_WriteAPDPReg(AP reg 0x01, 0x80011130)
T3EC0 000:631.068 - 0.180ms returns 0
T3EC0 000:631.079 JLINK_CORESIGHT_ReadAPDPReg(AP reg 0x03)
T3EC0 000:631.315   Value=0x43454842
T3EC0 000:631.326 - 0.247ms returns 0
T3EC0 000:631.333 JLINK_CORESIGHT_WriteAPDPReg(AP reg 0x00, 0x80000002)
T3EC0 000:631.511 - 0.177ms returns 0
T3EC0 000:631.521 JLINK_CORESIGHT_WriteAPDPReg(AP reg 0x01, 0x80011140)
T3EC0 000:631.699 - 0.178ms returns 0
T3EC0 000:631.709 JLINK_CORESIGHT_ReadAPDPReg(AP reg 0x03)
T3EC0 000:631.959   Value=0x00000000
T3EC0 000:631.969 - 0.260ms returns 0
T3EC0 000:631.977 JLINK_CORESIGHT_WriteAPDPReg(AP reg 0x00, 0x80000002)
T3EC0 000:632.155 - 0.177ms returns 0
T3EC0 000:632.166 JLINK_CORESIGHT_WriteAPDPReg(AP reg 0x01, 0x80011130)
T3EC0 000:632.353 - 0.187ms returns 0
T3EC0 000:632.363 JLINK_CORESIGHT_ReadAPDPReg(AP reg 0x03)
T3EC0 000:632.606   Value=0x20204442
T3EC0 000:632.617 - 0.254ms returns 0
T3EC0 000:632.624 JLINK_CORESIGHT_WriteAPDPReg(AP reg 0x00, 0x80000002)
T3EC0 000:632.802 - 0.177ms returns 0
T3EC0 000:632.812 JLINK_CORESIGHT_WriteAPDPReg(AP reg 0x01, 0x80011140)
T3EC0 000:632.994 - 0.182ms returns 0
T3EC0 000:633.004 JLINK_CORESIGHT_ReadAPDPReg(AP reg 0x03)
T3EC0 000:633.317   Value=0x00000000
T3EC0 000:633.327 - 0.323ms returns 0
T3EC0 000:633.335 JLINK_CORESIGHT_WriteAPDPReg(AP reg 0x00, 0x80000002)
T3EC0 000:633.519 - 0.184ms returns 0
T3EC0 000:633.530 JLINK_CORESIGHT_WriteAPDPReg(AP reg 0x01, 0x80011130)
T3EC0 000:633.749 - 0.219ms returns 0
T3EC0 000:633.761 JLINK_CORESIGHT_ReadAPDPReg(AP reg 0x03)
T3EC0 000:634.002   Value=0x00038F20
T3EC0 000:634.013 - 0.251ms returns 0
T3EC0 000:634.094 JLINK_CORESIGHT_WriteAPDPReg(AP reg 0x00, 0x80000002)
T3EC0 000:634.314 - 0.221ms returns 0
T3EC0 000:634.324 JLINK_CORESIGHT_WriteAPDPReg(AP reg 0x01, 0x80011140)
T3EC0 000:634.504 - 0.179ms returns 0
T3EC0 000:634.515 JLINK_CORESIGHT_ReadAPDPReg(AP reg 0x03)
T3EC0 000:634.800   Value=0x00000002
T3EC0 000:634.815 - 0.300ms returns 0
T3EC0 000:634.825 JLINK_CORESIGHT_WriteAPDPReg(AP reg 0x00, 0x80000002)
T3EC0 000:635.053 - 0.228ms returns 0
T3EC0 000:635.069 JLINK_CORESIGHT_WriteAPDPReg(AP reg 0x01, 0x80011120)
T3EC0 000:635.353 - 0.284ms returns 0
T3EC0 000:635.369 JLINK_CORESIGHT_WriteAPDPReg(AP reg 0x03, 0x2C010001)
T3EC0 000:635.560 - 0.190ms returns 0
T3EC0 000:635.589 JLINK_CORESIGHT_WriteAPDPReg(AP reg 0x00, 0x80000002)
T3EC0 000:635.776 - 0.187ms returns 0
T3EC0 000:635.787 JLINK_CORESIGHT_WriteAPDPReg(AP reg 0x01, 0x80011140)
T3EC0 000:635.969 - 0.182ms returns 0
T3EC0 000:635.979 JLINK_CORESIGHT_ReadAPDPReg(AP reg 0x03)
T3EC0 000:636.219   Value=0x00000002
T3EC0 000:636.229 - 0.250ms returns 0
T3EC0 000:636.237 JLINK_CORESIGHT_WriteAPDPReg(AP reg 0x00, 0x80000002)
T3EC0 000:636.428 - 0.191ms returns 0
T3EC0 000:636.438 JLINK_CORESIGHT_WriteAPDPReg(AP reg 0x01, 0x80011120)
T3EC0 000:636.635 - 0.196ms returns 0
T3EC0 000:636.654 JLINK_CORESIGHT_WriteAPDPReg(AP reg 0x03, 0x000003D3)
T3EC0 000:636.883 - 0.229ms returns 0
T3EC0 000:636.899 JLINK_CORESIGHT_WriteAPDPReg(AP reg 0x00, 0x80000002)
T3EC0 000:637.173 - 0.273ms returns 0
T3EC0 000:637.197 JLINK_CORESIGHT_WriteAPDPReg(AP reg 0x01, 0x80011140)
T3EC0 000:637.439 - 0.241ms returns 0
T3EC0 000:637.468 JLINK_CORESIGHT_ReadAPDPReg(AP reg 0x03)
T3EC0 000:637.780   Value=0x00000002
T3EC0 000:637.807 - 0.339ms returns 0
T3EC0 000:637.818 JLINK_CORESIGHT_ReadAPDPReg(AP reg 0x03)
T3EC0 000:638.104   Value=0x00000002
T3EC0 000:638.125 - 0.306ms returns 0
T3EC0 000:638.135 JLINK_CORESIGHT_ReadAPDPReg(AP reg 0x03)
T3EC0 000:638.388   Value=0x00000002
T3EC0 000:638.405 - 0.269ms returns 0
T3EC0 000:638.414 JLINK_CORESIGHT_ReadAPDPReg(AP reg 0x03)
T3EC0 000:638.736   Value=0x00000002
T3EC0 000:638.753 - 0.339ms returns 0
T3EC0 000:638.762 JLINK_CORESIGHT_ReadAPDPReg(AP reg 0x03)
T3EC0 000:639.050   Value=0x00000002
T3EC0 000:639.064 - 0.302ms returns 0
T3EC0 000:639.073 JLINK_CORESIGHT_ReadAPDPReg(AP reg 0x03)
T3EC0 000:639.318   Value=0x00000002
T3EC0 000:639.332 - 0.259ms returns 0
T3EC0 000:639.340 JLINK_CORESIGHT_ReadAPDPReg(AP reg 0x03)
T3EC0 000:639.595   Value=0x00000002
T3EC0 000:639.605 - 0.264ms returns 0
T3EC0 000:639.612 JLINK_CORESIGHT_ReadAPDPReg(AP reg 0x03)
T3EC0 000:639.856   Value=0x00000000
T3EC0 000:639.866 - 0.254ms returns 0
T3EC0 000:639.874 JLINK_CORESIGHT_WriteAPDPReg(AP reg 0x00, 0x80000002)
T3EC0 000:640.057 - 0.183ms returns 0
T3EC0 000:640.067 JLINK_CORESIGHT_WriteAPDPReg(AP reg 0x01, 0x80011130)
T3EC0 000:640.401 - 0.334ms returns 0
T3EC0 000:640.411 JLINK_CORESIGHT_ReadAPDPReg(AP reg 0x03)
T3EC0 000:640.657   Value=0x2C020081
T3EC0 000:640.667 - 0.256ms returns 0
T3EC0 000:640.675 JLINK_CORESIGHT_WriteAPDPReg(AP reg 0x00, 0x80000002)
T3EC0 000:640.853 - 0.177ms returns 0
T3EC0 000:640.863 JLINK_CORESIGHT_WriteAPDPReg(AP reg 0x01, 0x80011140)
T3EC0 000:641.045 - 0.182ms returns 0
T3EC0 000:641.055 JLINK_CORESIGHT_ReadAPDPReg(AP reg 0x03)
T3EC0 000:641.313   Value=0x00000000
T3EC0 000:641.327 - 0.271ms returns 0
T3EC0 000:641.335 JLINK_CORESIGHT_WriteAPDPReg(AP reg 0x00, 0x80000002)
T3EC0 000:641.575 - 0.239ms returns 0
T3EC0 000:641.591 JLINK_CORESIGHT_WriteAPDPReg(AP reg 0x01, 0x80011130)
T3EC0 000:641.781 - 0.190ms returns 0
T3EC0 000:641.795 JLINK_CORESIGHT_ReadAPDPReg(AP reg 0x03)
T3EC0 000:642.041   Value=0x0003CE04
T3EC0 000:642.052 - 0.257ms returns 0
T3EC0 000:642.065 JLINK_CORESIGHT_WriteAPDPReg(AP reg 0x00, 0x80000002)
T3EC0 000:642.317 - 0.252ms returns 0
T3EC0 000:642.334 JLINK_CORESIGHT_WriteAPDPReg(AP reg 0x01, 0x80011140)
T3EC0 000:642.517 - 0.183ms returns 0
T3EC0 000:642.528 JLINK_CORESIGHT_ReadAPDPReg(AP reg 0x03)
T3EC0 000:642.774   Value=0x00000002
T3EC0 000:642.785 - 0.257ms returns 0
T3EC0 000:642.793 JLINK_CORESIGHT_WriteAPDPReg(AP reg 0x00, 0x80000002)
T3EC0 000:643.005 - 0.211ms returns 0
T3EC0 000:643.017 JLINK_CORESIGHT_WriteAPDPReg(AP reg 0x01, 0x80011120)
T3EC0 000:643.198 - 0.181ms returns 0
T3EC0 000:643.208 JLINK_CORESIGHT_WriteAPDPReg(AP reg 0x03, 0x73010001)
T3EC0 000:643.423 - 0.214ms returns 0
T3EC0 000:643.433 JLINK_CORESIGHT_WriteAPDPReg(AP reg 0x00, 0x80000002)
T3EC0 000:643.614 - 0.181ms returns 0
T3EC0 000:643.624 JLINK_CORESIGHT_WriteAPDPReg(AP reg 0x01, 0x80011140)
T3EC0 000:643.810 - 0.185ms returns 0
T3EC0 000:643.824 JLINK_CORESIGHT_ReadAPDPReg(AP reg 0x03)
T3EC0 000:644.071   Value=0x00000002
T3EC0 000:644.083 - 0.259ms returns 0
T3EC0 000:644.092 JLINK_CORESIGHT_WriteAPDPReg(AP reg 0x00, 0x80000002)
T3EC0 000:644.318 - 0.226ms returns 0
T3EC0 000:644.329 JLINK_CORESIGHT_WriteAPDPReg(AP reg 0x01, 0x80011120)
T3EC0 000:644.515 - 0.186ms returns 0
T3EC0 000:644.526 JLINK_CORESIGHT_WriteAPDPReg(AP reg 0x03, 0x0000038C)
T3EC0 000:644.720 - 0.194ms returns 0
T3EC0 000:644.731 JLINK_CORESIGHT_WriteAPDPReg(AP reg 0x00, 0x80000002)
T3EC0 000:644.914 - 0.183ms returns 0
T3EC0 000:644.925 JLINK_CORESIGHT_WriteAPDPReg(AP reg 0x01, 0x80011140)
T3EC0 000:645.113 - 0.187ms returns 0
T3EC0 000:645.124 JLINK_CORESIGHT_ReadAPDPReg(AP reg 0x03)
T3EC0 000:645.379   Value=0x00000002
T3EC0 000:645.390 - 0.266ms returns 0
T3EC0 000:645.398 JLINK_CORESIGHT_ReadAPDPReg(AP reg 0x03)
T3EC0 000:645.649   Value=0x00000002
T3EC0 000:645.661 - 0.263ms returns 0
T3EC0 000:645.669 JLINK_CORESIGHT_ReadAPDPReg(AP reg 0x03)
T3EC0 000:645.910   Value=0x00000002
T3EC0 000:645.920 - 0.251ms returns 0
T3EC0 000:645.928 JLINK_CORESIGHT_ReadAPDPReg(AP reg 0x03)
T3EC0 000:646.219   Value=0x00000002
T3EC0 000:646.234 - 0.305ms returns 0
T3EC0 000:646.243 JLINK_CORESIGHT_ReadAPDPReg(AP reg 0x03)
T3EC0 000:646.536   Value=0x00000002
T3EC0 000:646.550 - 0.307ms returns 0
T3EC0 000:646.564 JLINK_CORESIGHT_ReadAPDPReg(AP reg 0x03)
T3EC0 000:646.875   Value=0x00000002
T3EC0 000:646.889 - 0.325ms returns 0
T3EC0 000:646.901 JLINK_CORESIGHT_ReadAPDPReg(AP reg 0x03)
T3EC0 000:647.186   Value=0x00000002
T3EC0 000:647.200 - 0.298ms returns 0
T3EC0 000:647.212 JLINK_CORESIGHT_ReadAPDPReg(AP reg 0x03)
T3EC0 000:647.486   Value=0x00000002
T3EC0 000:647.498 - 0.285ms returns 0
T3EC0 000:647.508 JLINK_CORESIGHT_ReadAPDPReg(AP reg 0x03)
T3EC0 000:647.751   Value=0x00000002
T3EC0 000:647.762 - 0.253ms returns 0
T3EC0 000:647.771 JLINK_CORESIGHT_ReadAPDPReg(AP reg 0x03)
T3EC0 000:648.011   Value=0x00000002
T3EC0 000:648.021 - 0.250ms returns 0
T3EC0 000:648.031 JLINK_CORESIGHT_ReadAPDPReg(AP reg 0x03)
T3EC0 000:648.352   Value=0x00000002
T3EC0 000:648.363 - 0.331ms returns 0
T3EC0 000:648.380 JLINK_CORESIGHT_ReadAPDPReg(AP reg 0x03)
T3EC0 000:648.630   Value=0x00000002
T3EC0 000:648.642 - 0.269ms returns 0
T3EC0 000:648.653 JLINK_CORESIGHT_ReadAPDPReg(AP reg 0x03)
T3EC0 000:648.897   Value=0x00000002
T3EC0 000:648.909 - 0.255ms returns 0
T3EC0 000:648.919 JLINK_CORESIGHT_ReadAPDPReg(AP reg 0x03)
T3EC0 000:649.159   Value=0x00000000
T3EC0 000:649.170 - 0.250ms returns 0
T3EC0 000:649.180 JLINK_CORESIGHT_WriteAPDPReg(AP reg 0x00, 0x80000002)
T3EC0 000:649.422 - 0.242ms returns 0
T3EC0 000:649.435 JLINK_CORESIGHT_WriteAPDPReg(AP reg 0x01, 0x80011130)
T3EC0 000:649.621 - 0.185ms returns 0
T3EC0 000:649.633 JLINK_CORESIGHT_ReadAPDPReg(AP reg 0x03)
T3EC0 000:649.880   Value=0x73020081
T3EC0 000:649.891 - 0.257ms returns 0
T3EC0 000:649.901 JLINK_CORESIGHT_WriteAPDPReg(AP reg 0x00, 0x80000002)
T3EC0 000:650.088 - 0.187ms returns 0
T3EC0 000:650.101 JLINK_CORESIGHT_WriteAPDPReg(AP reg 0x01, 0x80011140)
T3EC0 000:650.316 - 0.215ms returns 0
T3EC0 000:650.329 JLINK_CORESIGHT_ReadAPDPReg(AP reg 0x03)
T3EC0 000:650.588   Value=0x00000000
T3EC0 000:650.601 - 0.271ms returns 0
T3EC0 000:650.611 JLINK_CORESIGHT_WriteAPDPReg(AP reg 0x00, 0x80000002)
T3EC0 000:650.796 - 0.185ms returns 0
T3EC0 000:650.814 JLINK_CORESIGHT_WriteAPDPReg(AP reg 0x01, 0x80011130)
T3EC0 000:651.003 - 0.189ms returns 0
T3EC0 000:651.018 JLINK_CORESIGHT_ReadAPDPReg(AP reg 0x03)
T3EC0 000:651.310   Value=0x00038902
T3EC0 000:651.321 - 0.302ms returns 0
T3EC0 000:651.332 JLINK_CORESIGHT_WriteAPDPReg(AP reg 0x00, 0x80000002)
T3EC0 000:651.512 - 0.179ms returns 0
T3EC0 000:651.525 JLINK_CORESIGHT_WriteAPDPReg(AP reg 0x01, 0x80011140)
T3EC0 000:651.702 - 0.176ms returns 0
T3EC0 000:651.714 JLINK_CORESIGHT_ReadAPDPReg(AP reg 0x03)
T3EC0 000:651.958   Value=0x00000002
T3EC0 000:651.968 - 0.254ms returns 0
T3EC0 000:651.977 JLINK_CORESIGHT_WriteAPDPReg(AP reg 0x00, 0x80000002)
T3EC0 000:652.154 - 0.176ms returns 0
T3EC0 000:652.166 JLINK_CORESIGHT_WriteAPDPReg(AP reg 0x01, 0x80011120)
T3EC0 000:652.352 - 0.185ms returns 0
T3EC0 000:652.364 JLINK_CORESIGHT_WriteAPDPReg(AP reg 0x03, 0x75010001)
T3EC0 000:652.545 - 0.180ms returns 0
T3EC0 000:652.558 JLINK_CORESIGHT_WriteAPDPReg(AP reg 0x00, 0x80000002)
T3EC0 000:652.743 - 0.185ms returns 0
T3EC0 000:652.755 JLINK_CORESIGHT_WriteAPDPReg(AP reg 0x01, 0x80011140)
T3EC0 000:652.969 - 0.213ms returns 0
T3EC0 000:652.980 JLINK_CORESIGHT_ReadAPDPReg(AP reg 0x03)
T3EC0 000:653.267   Value=0x00000002
T3EC0 000:653.280 - 0.300ms returns 0
T3EC0 000:653.293 JLINK_CORESIGHT_WriteAPDPReg(AP reg 0x00, 0x80000002)
T3EC0 000:653.513 - 0.220ms returns 0
T3EC0 000:653.531 JLINK_CORESIGHT_WriteAPDPReg(AP reg 0x01, 0x80011120)
T3EC0 000:653.746 - 0.215ms returns 0
T3EC0 000:653.768 JLINK_CORESIGHT_WriteAPDPReg(AP reg 0x03, 0x0000038A)
T3EC0 000:653.977 - 0.209ms returns 0
T3EC0 000:654.004 JLINK_CORESIGHT_WriteAPDPReg(AP reg 0x00, 0x80000002)
T3EC0 000:654.323 - 0.318ms returns 0
T3EC0 000:654.348 JLINK_CORESIGHT_WriteAPDPReg(AP reg 0x01, 0x80011140)
T3EC0 000:654.546 - 0.197ms returns 0
T3EC0 000:654.567 JLINK_CORESIGHT_ReadAPDPReg(AP reg 0x03)
T3EC0 000:654.850   Value=0x00000000
T3EC0 000:654.896 - 0.328ms returns 0
T3EC0 000:654.916 JLINK_CORESIGHT_WriteAPDPReg(AP reg 0x00, 0x80000002)
T3EC0 000:655.135 - 0.219ms returns 0
T3EC0 000:655.151 JLINK_CORESIGHT_WriteAPDPReg(AP reg 0x01, 0x80011130)
T3EC0 000:655.348 - 0.197ms returns 0
T3EC0 000:655.361 JLINK_CORESIGHT_ReadAPDPReg(AP reg 0x03)
T3EC0 000:655.619   Value=0x75020081
T3EC0 000:655.630 - 0.269ms returns 0
T3EC0 000:655.640 JLINK_CORESIGHT_WriteAPDPReg(AP reg 0x00, 0x80000002)
T3EC0 000:655.942 - 0.301ms returns 0
T3EC0 000:655.962 JLINK_CORESIGHT_WriteAPDPReg(AP reg 0x01, 0x80011140)
T3EC0 000:656.194 - 0.232ms returns 0
T3EC0 000:656.212 JLINK_CORESIGHT_ReadAPDPReg(AP reg 0x03)
T3EC0 000:656.590   Value=0x00000000
T3EC0 000:656.603 - 0.391ms returns 0
T3EC0 000:656.616 JLINK_CORESIGHT_WriteAPDPReg(AP reg 0x00, 0x80000002)
T3EC0 000:656.803 - 0.186ms returns 0
T3EC0 000:656.817 JLINK_CORESIGHT_WriteAPDPReg(AP reg 0x01, 0x80011130)
T3EC0 000:656.996 - 0.179ms returns 0
T3EC0 000:657.008 JLINK_CORESIGHT_ReadAPDPReg(AP reg 0x03)
T3EC0 000:657.316   Value=0x00038702
T3EC0 000:657.331 - 0.322ms returns 0
T3EC0 000:657.698 JLINK_CORESIGHT_WriteAPDPReg(AP reg 0x00, 0x80000002)
T3EC0 000:657.883 - 0.185ms returns 0
T3EC0 000:657.893 JLINK_CORESIGHT_WriteAPDPReg(AP reg 0x01, 0x80011140)
T3EC0 000:658.112 - 0.219ms returns 0
T3EC0 000:658.126 JLINK_CORESIGHT_ReadAPDPReg(AP reg 0x03)
T3EC0 000:658.420   Value=0x00000002
T3EC0 000:658.433 - 0.307ms returns 0
T3EC0 000:658.442 JLINK_CORESIGHT_WriteAPDPReg(AP reg 0x00, 0x80000002)
T3EC0 000:658.665 - 0.223ms returns 0
T3EC0 000:658.679 JLINK_CORESIGHT_WriteAPDPReg(AP reg 0x01, 0x80011120)
T3EC0 000:658.916 - 0.237ms returns 0
T3EC0 000:658.929 JLINK_CORESIGHT_WriteAPDPReg(AP reg 0x03, 0x4F010001)
T3EC0 000:659.172 - 0.242ms returns 0
T3EC0 000:659.186 JLINK_CORESIGHT_WriteAPDPReg(AP reg 0x00, 0x80000002)
T3EC0 000:659.422 - 0.236ms returns 0
T3EC0 000:659.434 JLINK_CORESIGHT_WriteAPDPReg(AP reg 0x01, 0x80011140)
T3EC0 000:659.627 - 0.193ms returns 0
T3EC0 000:659.638 JLINK_CORESIGHT_ReadAPDPReg(AP reg 0x03)
T3EC0 000:659.880   Value=0x00000002
T3EC0 000:659.890 - 0.252ms returns 0
T3EC0 000:659.897 JLINK_CORESIGHT_WriteAPDPReg(AP reg 0x00, 0x80000002)
T3EC0 000:660.076 - 0.178ms returns 0
T3EC0 000:660.086 JLINK_CORESIGHT_WriteAPDPReg(AP reg 0x01, 0x80011120)
T3EC0 000:660.311 - 0.224ms returns 0
T3EC0 000:660.320 JLINK_CORESIGHT_WriteAPDPReg(AP reg 0x03, 0x000003B0)
T3EC0 000:660.499 - 0.178ms returns 0
T3EC0 000:660.509 JLINK_CORESIGHT_WriteAPDPReg(AP reg 0x00, 0x80000002)
T3EC0 000:660.692 - 0.183ms returns 0
T3EC0 000:660.703 JLINK_CORESIGHT_WriteAPDPReg(AP reg 0x01, 0x80011140)
T3EC0 000:660.880 - 0.178ms returns 0
T3EC0 000:660.891 JLINK_CORESIGHT_ReadAPDPReg(AP reg 0x03)
T3EC0 000:661.133   Value=0x00000002
T3EC0 000:661.144 - 0.253ms returns 0
T3EC0 000:661.151 JLINK_CORESIGHT_ReadAPDPReg(AP reg 0x03)
T3EC0 000:661.384   Value=0x00000002
T3EC0 000:661.395 - 0.243ms returns 0
T3EC0 000:661.402 JLINK_CORESIGHT_ReadAPDPReg(AP reg 0x03)
T3EC0 000:661.664   Value=0x00000002
T3EC0 000:661.676 - 0.273ms returns 0
T3EC0 000:661.684 JLINK_CORESIGHT_ReadAPDPReg(AP reg 0x03)
T3EC0 000:661.933   Value=0x00000002
T3EC0 000:661.945 - 0.261ms returns 0
T3EC0 000:661.953 JLINK_CORESIGHT_ReadAPDPReg(AP reg 0x03)
T3EC0 000:662.195   Value=0x00000002
T3EC0 000:662.205 - 0.252ms returns 0
T3EC0 000:662.212 JLINK_CORESIGHT_ReadAPDPReg(AP reg 0x03)
T3EC0 000:662.484   Value=0x00000002
T3EC0 000:662.495 - 0.282ms returns 0
T3EC0 000:662.502 JLINK_CORESIGHT_ReadAPDPReg(AP reg 0x03)
T3EC0 000:662.753   Value=0x00000002
T3EC0 000:662.763 - 0.261ms returns 0
T3EC0 000:662.771 JLINK_CORESIGHT_ReadAPDPReg(AP reg 0x03)
T3EC0 000:663.022   Value=0x00000002
T3EC0 000:663.032 - 0.261ms returns 0
T3EC0 000:663.039 JLINK_CORESIGHT_ReadAPDPReg(AP reg 0x03)
T3EC0 000:663.316   Value=0x00000002
T3EC0 000:663.326 - 0.287ms returns 0
T3EC0 000:663.334 JLINK_CORESIGHT_ReadAPDPReg(AP reg 0x03)
T3EC0 000:663.575   Value=0x00000002
T3EC0 000:663.585 - 0.251ms returns 0
T3EC0 000:663.592 JLINK_CORESIGHT_ReadAPDPReg(AP reg 0x03)
T3EC0 000:663.847   Value=0x00000002
T3EC0 000:663.857 - 0.265ms returns 0
T3EC0 000:663.864 JLINK_CORESIGHT_ReadAPDPReg(AP reg 0x03)
T3EC0 000:664.106   Value=0x00000002
T3EC0 000:664.117 - 0.252ms returns 0
T3EC0 000:664.124 JLINK_CORESIGHT_ReadAPDPReg(AP reg 0x03)
T3EC0 000:664.354   Value=0x00000002
T3EC0 000:664.364 - 0.239ms returns 0
T3EC0 000:664.371 JLINK_CORESIGHT_ReadAPDPReg(AP reg 0x03)
T3EC0 000:664.615   Value=0x00000002
T3EC0 000:664.625 - 0.254ms returns 0
T3EC0 000:664.632 JLINK_CORESIGHT_ReadAPDPReg(AP reg 0x03)
T3EC0 000:664.879   Value=0x00000000
T3EC0 000:664.889 - 0.256ms returns 0
T3EC0 000:664.901 JLINK_CORESIGHT_WriteAPDPReg(AP reg 0x00, 0x80000002)
T3EC0 000:665.085 - 0.184ms returns 0
T3EC0 000:665.095 JLINK_CORESIGHT_WriteAPDPReg(AP reg 0x01, 0x80011130)
T3EC0 000:665.316 - 0.220ms returns 0
T3EC0 000:665.326 JLINK_CORESIGHT_ReadAPDPReg(AP reg 0x03)
T3EC0 000:665.579   Value=0x4F0B0081
T3EC0 000:665.590 - 0.263ms returns 0
T3EC0 000:665.597 JLINK_CORESIGHT_WriteAPDPReg(AP reg 0x00, 0x80000002)
T3EC0 000:665.783 - 0.185ms returns 0
T3EC0 000:665.793 JLINK_CORESIGHT_WriteAPDPReg(AP reg 0x01, 0x80011140)
T3EC0 000:666.030 - 0.236ms returns 0
T3EC0 000:666.045 JLINK_CORESIGHT_ReadAPDPReg(AP reg 0x03)
T3EC0 000:666.369   Value=0x00000000
T3EC0 000:666.383 - 0.338ms returns 0
T3EC0 000:666.392 JLINK_CORESIGHT_WriteAPDPReg(AP reg 0x00, 0x80000002)
T3EC0 000:666.643 - 0.250ms returns 0
T3EC0 000:666.657 JLINK_CORESIGHT_WriteAPDPReg(AP reg 0x01, 0x80011130)
T3EC0 000:666.892 - 0.235ms returns 0
T3EC0 000:666.906 JLINK_CORESIGHT_ReadAPDPReg(AP reg 0x03)
T3EC0 000:667.157   Value=0x00050000
T3EC0 000:667.168 - 0.261ms returns 0
T3EC0 000:667.175 JLINK_CORESIGHT_WriteAPDPReg(AP reg 0x00, 0x80000002)
T3EC0 000:667.421 - 0.246ms returns 0
T3EC0 000:667.431 JLINK_CORESIGHT_WriteAPDPReg(AP reg 0x01, 0x80011140)
T3EC0 000:667.663 - 0.232ms returns 0
T3EC0 000:667.675 JLINK_CORESIGHT_ReadAPDPReg(AP reg 0x03)
T3EC0 000:667.915   Value=0x00000000
T3EC0 000:667.926 - 0.250ms returns 0
T3EC0 000:667.933 JLINK_CORESIGHT_WriteAPDPReg(AP reg 0x00, 0x80000002)
T3EC0 000:668.121 - 0.188ms returns 0
T3EC0 000:668.132 JLINK_CORESIGHT_WriteAPDPReg(AP reg 0x01, 0x80011130)
T3EC0 000:668.311 - 0.179ms returns 0
T3EC0 000:668.320 JLINK_CORESIGHT_ReadAPDPReg(AP reg 0x03)
T3EC0 000:668.614   Value=0x00000000
T3EC0 000:668.627 - 0.306ms returns 0
T3EC0 000:668.635 JLINK_CORESIGHT_WriteAPDPReg(AP reg 0x00, 0x80000002)
T3EC0 000:668.866 - 0.231ms returns 0
T3EC0 000:668.880 JLINK_CORESIGHT_WriteAPDPReg(AP reg 0x01, 0x80011140)
T3EC0 000:669.114 - 0.234ms returns 0
T3EC0 000:669.127 JLINK_CORESIGHT_ReadAPDPReg(AP reg 0x03)
T3EC0 000:669.425   Value=0x00000000
T3EC0 000:669.439 - 0.311ms returns 0
T3EC0 000:669.447 JLINK_CORESIGHT_WriteAPDPReg(AP reg 0x00, 0x80000002)
T3EC0 000:669.677 - 0.230ms returns 0
T3EC0 000:669.690 JLINK_CORESIGHT_WriteAPDPReg(AP reg 0x01, 0x80011130)
T3EC0 000:669.919 - 0.229ms returns 0
T3EC0 000:669.932 JLINK_CORESIGHT_ReadAPDPReg(AP reg 0x03)
T3EC0 000:670.207   Value=0x03A10000
T3EC0 000:670.225 - 0.293ms returns 0
T3EC0 000:670.346 JLINK_CORESIGHT_WriteAPDPReg(AP reg 0x00, 0x80000002)
T3EC0 000:670.564 - 0.217ms returns 0
T3EC0 000:670.583 JLINK_CORESIGHT_WriteAPDPReg(AP reg 0x01, 0x80011140)
T3EC0 000:670.790 - 0.207ms returns 0
T3EC0 000:670.807 JLINK_CORESIGHT_ReadAPDPReg(AP reg 0x03)
T3EC0 000:671.100   Value=0x00000002
T3EC0 000:671.129 - 0.321ms returns 0
T3EC0 000:671.140 JLINK_CORESIGHT_WriteAPDPReg(AP reg 0x00, 0x80000002)
T3EC0 000:671.367 - 0.226ms returns 0
T3EC0 000:671.391 JLINK_CORESIGHT_WriteAPDPReg(AP reg 0x01, 0x80011120)
T3EC0 000:671.647 - 0.255ms returns 0
T3EC0 000:671.664 JLINK_CORESIGHT_WriteAPDPReg(AP reg 0x03, 0x2C010001)
T3EC0 000:671.889 - 0.224ms returns 0
T3EC0 000:671.903 JLINK_CORESIGHT_WriteAPDPReg(AP reg 0x00, 0x80000002)
T3EC0 000:672.130 - 0.226ms returns 0
T3EC0 000:672.143 JLINK_CORESIGHT_WriteAPDPReg(AP reg 0x01, 0x80011140)
T3EC0 000:672.460 - 0.317ms returns 0
T3EC0 000:672.480 JLINK_CORESIGHT_ReadAPDPReg(AP reg 0x03)
T3EC0 000:672.725   Value=0x00000002
T3EC0 000:672.738 - 0.257ms returns 0
T3EC0 000:672.745 JLINK_CORESIGHT_WriteAPDPReg(AP reg 0x00, 0x80000002)
T3EC0 000:672.931 - 0.186ms returns 0
T3EC0 000:672.940 JLINK_CORESIGHT_WriteAPDPReg(AP reg 0x01, 0x80011120)
T3EC0 000:673.119 - 0.179ms returns 0
T3EC0 000:673.128 JLINK_CORESIGHT_WriteAPDPReg(AP reg 0x03, 0x000003D3)
T3EC0 000:673.309 - 0.181ms returns 0
T3EC0 000:673.318 JLINK_CORESIGHT_WriteAPDPReg(AP reg 0x00, 0x80000002)
T3EC0 000:673.493 - 0.175ms returns 0
T3EC0 000:673.501 JLINK_CORESIGHT_WriteAPDPReg(AP reg 0x01, 0x80011140)
T3EC0 000:673.730 - 0.228ms returns 0
T3EC0 000:673.744 JLINK_CORESIGHT_ReadAPDPReg(AP reg 0x03)
T3EC0 000:674.028   Value=0x00000002
T3EC0 000:674.041 - 0.297ms returns 0
T3EC0 000:674.049 JLINK_CORESIGHT_ReadAPDPReg(AP reg 0x03)
T3EC0 000:674.354   Value=0x00000002
T3EC0 000:674.366 - 0.317ms returns 0
T3EC0 000:674.374 JLINK_CORESIGHT_ReadAPDPReg(AP reg 0x03)
T3EC0 000:674.598   Value=0x00000002
T3EC0 000:674.610 - 0.236ms returns 0
T3EC0 000:674.618 JLINK_CORESIGHT_ReadAPDPReg(AP reg 0x03)
T3EC0 000:674.866   Value=0x00000002
T3EC0 000:674.875 - 0.257ms returns 0
T3EC0 000:674.882 JLINK_CORESIGHT_ReadAPDPReg(AP reg 0x03)
T3EC0 000:675.118   Value=0x00000002
T3EC0 000:675.127 - 0.245ms returns 0
T3EC0 000:675.134 JLINK_CORESIGHT_ReadAPDPReg(AP reg 0x03)
T3EC0 000:675.352   Value=0x00000002
T3EC0 000:675.365 - 0.231ms returns 0
T3EC0 000:675.373 JLINK_CORESIGHT_ReadAPDPReg(AP reg 0x03)
T3EC0 000:675.589   Value=0x00000002
T3EC0 000:675.598 - 0.226ms returns 0
T3EC0 000:675.605 JLINK_CORESIGHT_ReadAPDPReg(AP reg 0x03)
T3EC0 000:675.841   Value=0x00000002
T3EC0 000:675.850 - 0.245ms returns 0
T3EC0 000:675.857 JLINK_CORESIGHT_ReadAPDPReg(AP reg 0x03)
T3EC0 000:676.093   Value=0x00000002
T3EC0 000:676.146 - 0.289ms returns 0
T3EC0 000:676.153 JLINK_CORESIGHT_ReadAPDPReg(AP reg 0x03)
T3EC0 000:676.376   Value=0x00000000
T3EC0 000:676.385 - 0.232ms returns 0
T3EC0 000:676.392 JLINK_CORESIGHT_WriteAPDPReg(AP reg 0x00, 0x80000002)
T3EC0 000:676.573 - 0.181ms returns 0
T3EC0 000:676.583 JLINK_CORESIGHT_WriteAPDPReg(AP reg 0x01, 0x80011130)
T3EC0 000:676.798 - 0.215ms returns 0
T3EC0 000:676.812 JLINK_CORESIGHT_ReadAPDPReg(AP reg 0x03)
T3EC0 000:677.090   Value=0x2C020081
T3EC0 000:677.103 - 0.291ms returns 0
T3EC0 000:677.111 JLINK_CORESIGHT_WriteAPDPReg(AP reg 0x00, 0x80000002)
T3EC0 000:677.352 - 0.240ms returns 0
T3EC0 000:677.365 JLINK_CORESIGHT_WriteAPDPReg(AP reg 0x01, 0x80011140)
T3EC0 000:677.551 - 0.186ms returns 0
T3EC0 000:677.565 JLINK_CORESIGHT_ReadAPDPReg(AP reg 0x03)
T3EC0 000:677.821   Value=0x00000000
T3EC0 000:677.831 - 0.266ms returns 0
T3EC0 000:677.838 JLINK_CORESIGHT_WriteAPDPReg(AP reg 0x00, 0x80000002)
T3EC0 000:678.021 - 0.182ms returns 0
T3EC0 000:678.030 JLINK_CORESIGHT_WriteAPDPReg(AP reg 0x01, 0x80011130)
T3EC0 000:678.208 - 0.178ms returns 0
T3EC0 000:678.217 JLINK_CORESIGHT_ReadAPDPReg(AP reg 0x03)
T3EC0 000:678.489   Value=0x0003CE04
T3EC0 000:678.498 - 0.281ms returns 0
T3EC0 000:678.511 JLINK_CORESIGHT_WriteAPDPReg(AP reg 0x00, 0x80000002)
T3EC0 000:678.689 - 0.178ms returns 0
T3EC0 000:678.700 JLINK_CORESIGHT_WriteAPDPReg(AP reg 0x01, 0x80011140)
T3EC0 000:678.877 - 0.177ms returns 0
T3EC0 000:678.887 JLINK_CORESIGHT_ReadAPDPReg(AP reg 0x03)
T3EC0 000:679.127   Value=0x00000002
T3EC0 000:679.135 - 0.248ms returns 0
T3EC0 000:679.142 JLINK_CORESIGHT_WriteAPDPReg(AP reg 0x00, 0x80000002)
T3EC0 000:679.352 - 0.209ms returns 0
T3EC0 000:679.361 JLINK_CORESIGHT_WriteAPDPReg(AP reg 0x01, 0x80011120)
T3EC0 000:679.541 - 0.180ms returns 0
T3EC0 000:679.550 JLINK_CORESIGHT_WriteAPDPReg(AP reg 0x03, 0x73010001)
T3EC0 000:679.736 - 0.186ms returns 0
T3EC0 000:679.746 JLINK_CORESIGHT_WriteAPDPReg(AP reg 0x00, 0x80000002)
T3EC0 000:679.996 - 0.250ms returns 0
T3EC0 000:680.010 JLINK_CORESIGHT_WriteAPDPReg(AP reg 0x01, 0x80011140)
T3EC0 000:680.202 - 0.193ms returns 0
T3EC0 000:680.211 JLINK_CORESIGHT_ReadAPDPReg(AP reg 0x03)
T3EC0 000:680.525   Value=0x00000002
T3EC0 000:680.534 - 0.322ms returns 0
T3EC0 000:680.540 JLINK_CORESIGHT_WriteAPDPReg(AP reg 0x00, 0x80000002)
T3EC0 000:680.719 - 0.178ms returns 0
T3EC0 000:680.728 JLINK_CORESIGHT_WriteAPDPReg(AP reg 0x01, 0x80011120)
T3EC0 000:680.905 - 0.177ms returns 0
T3EC0 000:680.914 JLINK_CORESIGHT_WriteAPDPReg(AP reg 0x03, 0x0000038C)
T3EC0 000:681.089 - 0.174ms returns 0
T3EC0 000:681.099 JLINK_CORESIGHT_WriteAPDPReg(AP reg 0x00, 0x80000002)
T3EC0 000:681.315 - 0.216ms returns 0
T3EC0 000:681.324 JLINK_CORESIGHT_WriteAPDPReg(AP reg 0x01, 0x80011140)
T3EC0 000:681.503 - 0.178ms returns 0
T3EC0 000:681.511 JLINK_CORESIGHT_ReadAPDPReg(AP reg 0x03)
T3EC0 000:681.755   Value=0x00000000
T3EC0 000:681.764 - 0.253ms returns 0
T3EC0 000:681.772 JLINK_CORESIGHT_WriteAPDPReg(AP reg 0x00, 0x80000002)
T3EC0 000:681.977 - 0.205ms returns 0
T3EC0 000:681.986 JLINK_CORESIGHT_WriteAPDPReg(AP reg 0x01, 0x80011130)
T3EC0 000:682.215 - 0.229ms returns 0
T3EC0 000:682.232 JLINK_CORESIGHT_ReadAPDPReg(AP reg 0x03)
T3EC0 000:682.524   Value=0x73020081
T3EC0 000:682.537 - 0.304ms returns 0
T3EC0 000:682.548 JLINK_CORESIGHT_WriteAPDPReg(AP reg 0x00, 0x80000002)
T3EC0 000:682.767 - 0.219ms returns 0
T3EC0 000:682.783 JLINK_CORESIGHT_WriteAPDPReg(AP reg 0x01, 0x80011140)
T3EC0 000:683.003 - 0.219ms returns 0
T3EC0 000:683.020 JLINK_CORESIGHT_ReadAPDPReg(AP reg 0x03)
T3EC0 000:683.353   Value=0x00000000
T3EC0 000:683.366 - 0.346ms returns 0
T3EC0 000:683.377 JLINK_CORESIGHT_WriteAPDPReg(AP reg 0x00, 0x80000002)
T3EC0 000:683.556 - 0.178ms returns 0
T3EC0 000:683.568 JLINK_CORESIGHT_WriteAPDPReg(AP reg 0x01, 0x80011130)
T3EC0 000:683.754 - 0.186ms returns 0
T3EC0 000:683.767 JLINK_CORESIGHT_ReadAPDPReg(AP reg 0x03)
T3EC0 000:684.010   Value=0x00038902
T3EC0 000:684.021 - 0.253ms returns 0
T3EC0 000:684.068 JLINK_CORESIGHT_WriteAPDPReg(AP reg 0x00, 0x80000002)
T3EC0 000:684.317 - 0.248ms returns 0
T3EC0 000:684.332 JLINK_CORESIGHT_WriteAPDPReg(AP reg 0x01, 0x80011140)
T3EC0 000:684.512 - 0.180ms returns 0
T3EC0 000:684.524 JLINK_CORESIGHT_ReadAPDPReg(AP reg 0x03)
T3EC0 000:684.766   Value=0x00000002
T3EC0 000:684.777 - 0.253ms returns 0
T3EC0 000:684.787 JLINK_CORESIGHT_WriteAPDPReg(AP reg 0x00, 0x80000002)
T3EC0 000:684.970 - 0.182ms returns 0
T3EC0 000:684.983 JLINK_CORESIGHT_WriteAPDPReg(AP reg 0x01, 0x80011120)
T3EC0 000:685.160 - 0.177ms returns 0
T3EC0 000:685.171 JLINK_CORESIGHT_WriteAPDPReg(AP reg 0x03, 0x75010001)
T3EC0 000:685.419 - 0.248ms returns 0
T3EC0 000:685.430 JLINK_CORESIGHT_WriteAPDPReg(AP reg 0x00, 0x80000002)
T3EC0 000:685.605 - 0.175ms returns 0
T3EC0 000:685.616 JLINK_CORESIGHT_WriteAPDPReg(AP reg 0x01, 0x80011140)
T3EC0 000:685.796 - 0.179ms returns 0
T3EC0 000:685.808 JLINK_CORESIGHT_ReadAPDPReg(AP reg 0x03)
T3EC0 000:686.059   Value=0x00000002
T3EC0 000:686.069 - 0.260ms returns 0
T3EC0 000:686.078 JLINK_CORESIGHT_WriteAPDPReg(AP reg 0x00, 0x80000002)
T3EC0 000:686.316 - 0.238ms returns 0
T3EC0 000:686.327 JLINK_CORESIGHT_WriteAPDPReg(AP reg 0x01, 0x80011120)
T3EC0 000:686.503 - 0.176ms returns 0
T3EC0 000:686.513 JLINK_CORESIGHT_WriteAPDPReg(AP reg 0x03, 0x0000038A)
T3EC0 000:686.688 - 0.174ms returns 0
T3EC0 000:686.699 JLINK_CORESIGHT_WriteAPDPReg(AP reg 0x00, 0x80000002)
T3EC0 000:686.889 - 0.189ms returns 0
T3EC0 000:686.903 JLINK_CORESIGHT_WriteAPDPReg(AP reg 0x01, 0x80011140)
T3EC0 000:687.117 - 0.213ms returns 0
T3EC0 000:687.142 JLINK_CORESIGHT_ReadAPDPReg(AP reg 0x03)
T3EC0 000:687.498   Value=0x00000002
T3EC0 000:687.524 - 0.381ms returns 0
T3EC0 000:687.542 JLINK_CORESIGHT_ReadAPDPReg(AP reg 0x03)
T3EC0 000:687.825   Value=0x00000002
T3EC0 000:687.844 - 0.301ms returns 0
T3EC0 000:687.857 JLINK_CORESIGHT_ReadAPDPReg(AP reg 0x03)
T3EC0 000:688.164   Value=0x00000002
T3EC0 000:688.180 - 0.322ms returns 0
T3EC0 000:688.191 JLINK_CORESIGHT_ReadAPDPReg(AP reg 0x03)
T3EC0 000:688.560   Value=0x00000002
T3EC0 000:688.571 - 0.379ms returns 0
T3EC0 000:688.580 JLINK_CORESIGHT_ReadAPDPReg(AP reg 0x03)
T3EC0 000:688.851   Value=0x00000002
T3EC0 000:688.860 - 0.280ms returns 0
T3EC0 000:688.870 JLINK_CORESIGHT_ReadAPDPReg(AP reg 0x03)
T3EC0 000:689.111   Value=0x00000002
T3EC0 000:689.147 - 0.277ms returns 0
T3EC0 000:689.158 JLINK_CORESIGHT_ReadAPDPReg(AP reg 0x03)
T3EC0 000:689.408   Value=0x00000002
T3EC0 000:689.417 - 0.259ms returns 0
T3EC0 000:689.426 JLINK_CORESIGHT_ReadAPDPReg(AP reg 0x03)
T3EC0 000:689.668   Value=0x00000000
T3EC0 000:689.677 - 0.251ms returns 0
T3EC0 000:689.687 JLINK_CORESIGHT_WriteAPDPReg(AP reg 0x00, 0x80000002)
T3EC0 000:689.861 - 0.174ms returns 0
T3EC0 000:689.871 JLINK_CORESIGHT_WriteAPDPReg(AP reg 0x01, 0x80011130)
T3EC0 000:690.049 - 0.177ms returns 0
T3EC0 000:690.060 JLINK_CORESIGHT_ReadAPDPReg(AP reg 0x03)
T3EC0 000:690.311   Value=0x75020081
T3EC0 000:690.320 - 0.260ms returns 0
T3EC0 000:690.329 JLINK_CORESIGHT_WriteAPDPReg(AP reg 0x00, 0x80000002)
T3EC0 000:690.504 - 0.174ms returns 0
T3EC0 000:690.515 JLINK_CORESIGHT_WriteAPDPReg(AP reg 0x01, 0x80011140)
T3EC0 000:690.694 - 0.179ms returns 0
T3EC0 000:690.705 JLINK_CORESIGHT_ReadAPDPReg(AP reg 0x03)
T3EC0 000:690.944   Value=0x00000000
T3EC0 000:690.953 - 0.248ms returns 0
T3EC0 000:690.961 JLINK_CORESIGHT_WriteAPDPReg(AP reg 0x00, 0x80000002)
T3EC0 000:691.136 - 0.174ms returns 0
T3EC0 000:691.147 JLINK_CORESIGHT_WriteAPDPReg(AP reg 0x01, 0x80011130)
T3EC0 000:691.320 - 0.173ms returns 0
T3EC0 000:691.331 JLINK_CORESIGHT_ReadAPDPReg(AP reg 0x03)
T3EC0 000:691.572   Value=0x00038702
T3EC0 000:691.582 - 0.251ms returns 0
T3EC0 000:691.946 JLINK_CORESIGHT_WriteAPDPReg(AP reg 0x00, 0x80000002)
T3EC0 000:692.127 - 0.181ms returns 0
T3EC0 000:692.136 JLINK_CORESIGHT_WriteAPDPReg(AP reg 0x01, 0x80011140)
T3EC0 000:692.309 - 0.172ms returns 0
T3EC0 000:692.317 JLINK_CORESIGHT_ReadAPDPReg(AP reg 0x03)
T3EC0 000:692.556   Value=0x00000002
T3EC0 000:692.617 - 0.299ms returns 0
T3EC0 000:692.625 JLINK_CORESIGHT_WriteAPDPReg(AP reg 0x00, 0x80000002)
T3EC0 000:692.814 - 0.189ms returns 0
T3EC0 000:692.825 JLINK_CORESIGHT_WriteAPDPReg(AP reg 0x01, 0x80011120)
T3EC0 000:693.003 - 0.177ms returns 0
T3EC0 000:693.012 JLINK_CORESIGHT_WriteAPDPReg(AP reg 0x03, 0x4E0B0001)
T3EC0 000:693.187 - 0.175ms returns 0
T3EC0 000:693.196 JLINK_CORESIGHT_WriteAPDPReg(AP reg 0x00, 0x80000002)
T3EC0 000:693.431 - 0.234ms returns 0
T3EC0 000:693.443 JLINK_CORESIGHT_WriteAPDPReg(AP reg 0x01, 0x80011140)
T3EC0 000:693.625 - 0.183ms returns 0
T3EC0 000:693.636 JLINK_CORESIGHT_ReadAPDPReg(AP reg 0x03)
T3EC0 000:693.877   Value=0x00000002
T3EC0 000:693.886 - 0.250ms returns 0
T3EC0 000:693.893 JLINK_CORESIGHT_WriteAPDPReg(AP reg 0x00, 0x80000002)
T3EC0 000:694.066 - 0.173ms returns 0
T3EC0 000:694.075 JLINK_CORESIGHT_WriteAPDPReg(AP reg 0x01, 0x80011120)
T3EC0 000:694.325 - 0.250ms returns 0
T3EC0 000:694.333 JLINK_CORESIGHT_WriteAPDPReg(AP reg 0x03, 0xC0010000)
T3EC0 000:694.510 - 0.176ms returns 0
T3EC0 000:694.519 JLINK_CORESIGHT_WriteAPDPReg(AP reg 0x00, 0x80000002)
T3EC0 000:694.698 - 0.178ms returns 0
T3EC0 000:694.706 JLINK_CORESIGHT_WriteAPDPReg(AP reg 0x01, 0x80011140)
T3EC0 000:694.884 - 0.177ms returns 0
T3EC0 000:694.892 JLINK_CORESIGHT_ReadAPDPReg(AP reg 0x03)
T3EC0 000:695.128   Value=0x00000002
T3EC0 000:695.137 - 0.244ms returns 0
T3EC0 000:695.144 JLINK_CORESIGHT_WriteAPDPReg(AP reg 0x00, 0x80000002)
T3EC0 000:695.321 - 0.177ms returns 0
T3EC0 000:695.330 JLINK_CORESIGHT_WriteAPDPReg(AP reg 0x01, 0x80011120)
T3EC0 000:695.508 - 0.179ms returns 0
T3EC0 000:695.517 JLINK_CORESIGHT_WriteAPDPReg(AP reg 0x03, 0x00000000)
T3EC0 000:695.714 - 0.196ms returns 0
T3EC0 000:695.725 JLINK_CORESIGHT_WriteAPDPReg(AP reg 0x00, 0x80000002)
T3EC0 000:695.912 - 0.187ms returns 0
T3EC0 000:695.921 JLINK_CORESIGHT_WriteAPDPReg(AP reg 0x01, 0x80011140)
T3EC0 000:696.101 - 0.179ms returns 0
T3EC0 000:696.110 JLINK_CORESIGHT_ReadAPDPReg(AP reg 0x03)
T3EC0 000:696.357   Value=0x00000002
T3EC0 000:696.366 - 0.256ms returns 0
T3EC0 000:696.373 JLINK_CORESIGHT_WriteAPDPReg(AP reg 0x00, 0x80000002)
T3EC0 000:696.555 - 0.182ms returns 0
T3EC0 000:696.565 JLINK_CORESIGHT_WriteAPDPReg(AP reg 0x01, 0x80011120)
T3EC0 000:696.754 - 0.189ms returns 0
T3EC0 000:696.763 JLINK_CORESIGHT_WriteAPDPReg(AP reg 0x03, 0x03E60000)
T3EC0 000:696.944 - 0.180ms returns 0
T3EC0 000:696.953 JLINK_CORESIGHT_WriteAPDPReg(AP reg 0x00, 0x80000002)
T3EC0 000:697.131 - 0.178ms returns 0
T3EC0 000:697.140 JLINK_CORESIGHT_WriteAPDPReg(AP reg 0x01, 0x80011140)
T3EC0 000:697.320 - 0.180ms returns 0
T3EC0 000:697.329 JLINK_CORESIGHT_ReadAPDPReg(AP reg 0x03)
T3EC0 000:697.565   Value=0x00000002
T3EC0 000:697.574 - 0.245ms returns 0
T3EC0 000:697.600 JLINK_CORESIGHT_ReadAPDPReg(AP reg 0x03)
T3EC0 000:697.845   Value=0x00000002
T3EC0 000:697.857 - 0.257ms returns 0
T3EC0 000:697.864 JLINK_CORESIGHT_ReadAPDPReg(AP reg 0x03)
T3EC0 000:698.107   Value=0x00000002
T3EC0 000:698.116 - 0.251ms returns 0
T3EC0 000:698.123 JLINK_CORESIGHT_ReadAPDPReg(AP reg 0x03)
T3EC0 000:698.351   Value=0x00000002
T3EC0 000:698.360 - 0.237ms returns 0
T3EC0 000:698.367 JLINK_CORESIGHT_ReadAPDPReg(AP reg 0x03)
T3EC0 000:698.607   Value=0x00000002
T3EC0 000:698.616 - 0.250ms returns 0
T3EC0 000:698.623 JLINK_CORESIGHT_ReadAPDPReg(AP reg 0x03)
T3EC0 000:698.870   Value=0x00000002
T3EC0 000:698.880 - 0.256ms returns 0
T3EC0 000:698.887 JLINK_CORESIGHT_ReadAPDPReg(AP reg 0x03)
T3EC0 000:699.126   Value=0x00000002
T3EC0 000:699.135 - 0.248ms returns 0
T3EC0 000:699.142 JLINK_CORESIGHT_ReadAPDPReg(AP reg 0x03)
T3EC0 000:699.377   Value=0x00000002
T3EC0 000:699.386 - 0.244ms returns 0
T3EC0 000:699.392 JLINK_CORESIGHT_ReadAPDPReg(AP reg 0x03)
T3EC0 000:699.638   Value=0x00000002
T3EC0 000:699.656 - 0.264ms returns 0
T3EC0 000:699.664 JLINK_CORESIGHT_ReadAPDPReg(AP reg 0x03)
T3EC0 000:699.911   Value=0x00000002
T3EC0 000:699.922 - 0.258ms returns 0
T3EC0 000:699.929 JLINK_CORESIGHT_ReadAPDPReg(AP reg 0x03)
T3EC0 000:700.177   Value=0x00000002
T3EC0 000:700.186 - 0.257ms returns 0
T3EC0 000:700.193 JLINK_CORESIGHT_ReadAPDPReg(AP reg 0x03)
T3EC0 000:700.483   Value=0x00000002
T3EC0 000:700.493 - 0.300ms returns 0
T3EC0 000:700.500 JLINK_CORESIGHT_ReadAPDPReg(AP reg 0x03)
T3EC0 000:700.741   Value=0x00000002
T3EC0 000:700.752 - 0.251ms returns 0
T3EC0 000:700.759 JLINK_CORESIGHT_ReadAPDPReg(AP reg 0x03)
T3EC0 000:701.002   Value=0x00000002
T3EC0 000:701.013 - 0.254ms returns 0
T3EC0 000:701.021 JLINK_CORESIGHT_ReadAPDPReg(AP reg 0x03)
T3EC0 000:701.317   Value=0x00000002
T3EC0 000:701.330 - 0.309ms returns 0
T3EC0 000:701.337 JLINK_CORESIGHT_ReadAPDPReg(AP reg 0x03)
T3EC0 000:701.583   Value=0x00000002
T3EC0 000:701.592 - 0.255ms returns 0
T3EC0 000:701.599 JLINK_CORESIGHT_ReadAPDPReg(AP reg 0x03)
T3EC0 000:701.844   Value=0x00000002
T3EC0 000:701.853 - 0.254ms returns 0
T3EC0 000:701.860 JLINK_CORESIGHT_ReadAPDPReg(AP reg 0x03)
T3EC0 000:702.105   Value=0x00000002
T3EC0 000:702.115 - 0.255ms returns 0
T3EC0 000:702.122 JLINK_CORESIGHT_ReadAPDPReg(AP reg 0x03)
T3EC0 000:702.347   Value=0x00000002
T3EC0 000:702.356 - 0.234ms returns 0
T3EC0 000:702.363 JLINK_CORESIGHT_ReadAPDPReg(AP reg 0x03)
T3EC0 000:702.606   Value=0x00000002
T3EC0 000:702.615 - 0.251ms returns 0
T3EC0 000:702.621 JLINK_CORESIGHT_ReadAPDPReg(AP reg 0x03)
T3EC0 000:702.840   Value=0x00000002
T3EC0 000:702.849 - 0.227ms returns 0
T3EC0 000:702.856 JLINK_CORESIGHT_ReadAPDPReg(AP reg 0x03)
T3EC0 000:703.092   Value=0x00000002
T3EC0 000:703.101 - 0.245ms returns 0
T3EC0 000:703.108 JLINK_CORESIGHT_ReadAPDPReg(AP reg 0x03)
T3EC0 000:703.377   Value=0x00000002
T3EC0 000:703.387 - 0.279ms returns 0
T3EC0 000:703.396 JLINK_CORESIGHT_ReadAPDPReg(AP reg 0x03)
